! TOUCHSTONE file generated by CST MICROWAVE STUDIO
! Date and time: Mon Sep 16 14:48:24 2024
! Project name: 8x8.cst
! Parameters = {C=31; C1=27.594; C10=31.4491; C11=31.8754; C12=32.0541; C13=32.3846; C14=31.8371; C15=31.4326; C16=29.2089; C17=29.4993; C18=31.8243; C19=32.4152; C2=29.2056; C20=32.6448; C21=32.6584; C22=32.4226; C23=31.9007; C24=29.4645; C25=29.5591; C26=32.0645; C27=32.6494; C28=33.1378; C29=32.9184; C3=29.6005; C30=32.7103; C31=32.2059; C32=29.6476; C33=29.5911; C34=31.9609; C35=32.8448; C36=32.9634; C37=32.9773; C38=32.6976; C39=32.1862; C4=29.6678; C40=29.518; C41=29.4698; C42=31.9965; C43=32.4357; C44=32.6643; C45=32.6258; C46=32.5924; C47=31.805; C48=29.391; C49=29.2309; C5=29.5132; C50=31.5104; C51=31.845; C52=32.0036; C53=32.0079; C54=31.8395; C55=31.3683; C56=29.4782; C57=27.7114; C58=29.1378; C59=29.4932; C6=29.3994; C60=29.4053; C61=29.5852; C62=29.4208; C63=29.2022; C64=27.5507; C7=29.233; C8=27.5227; C9=29.1847; L_ex=10; exc_coil_width=200; exc_coil_wire_width=1; pcb_edge=1; pcb_thickness=1.6; phantom_edge=10; split_ring_height=0.035; split_ring_inner_radius=13; split_ring_outer_radius=14; trace_width=1}
! Header version: 2018
! Port assignment regex: !\s*Touchstone port\s*([0-9]+)\s*=\s*(CST MWS port|CST DS port)\s*([0-9]+|Zmin|Zmax)\s*\(\"(.*)\"\)(\s*mode\s*([0-9]+))?.*
! Touchstone port assignment:
! Touchstone port 1 = CST MWS port 1 ("")
! Touchstone port 2 = CST MWS port 2 ("")
! Touchstone port 3 = CST MWS port 3 ("")
! Touchstone port 4 = CST MWS port 4 ("")
! Touchstone port 5 = CST MWS port 5 ("")
! Touchstone port 6 = CST MWS port 6 ("")
! Touchstone port 7 = CST MWS port 7 ("")
! Touchstone port 8 = CST MWS port 8 ("")
! Touchstone port 9 = CST MWS port 9 ("")
! Touchstone port 10 = CST MWS port 10 ("")
! Touchstone port 11 = CST MWS port 11 ("")
! Touchstone port 12 = CST MWS port 12 ("")
! Touchstone port 13 = CST MWS port 13 ("")
! Touchstone port 14 = CST MWS port 14 ("")
! Touchstone port 15 = CST MWS port 15 ("")
! Touchstone port 16 = CST MWS port 16 ("")
! Touchstone port 17 = CST MWS port 17 ("")
! Touchstone port 18 = CST MWS port 18 ("")
! Touchstone port 19 = CST MWS port 19 ("")
! Touchstone port 20 = CST MWS port 20 ("")
! Touchstone port 21 = CST MWS port 21 ("")
! Touchstone port 22 = CST MWS port 22 ("")
! Touchstone port 23 = CST MWS port 23 ("")
! Touchstone port 24 = CST MWS port 24 ("")
! Touchstone port 25 = CST MWS port 25 ("")
! Touchstone port 26 = CST MWS port 26 ("")
! Touchstone port 27 = CST MWS port 27 ("")
! Touchstone port 28 = CST MWS port 28 ("")
! Touchstone port 29 = CST MWS port 29 ("")
! Touchstone port 30 = CST MWS port 30 ("")
! Touchstone port 31 = CST MWS port 31 ("")
! Touchstone port 32 = CST MWS port 32 ("")
! Touchstone port 33 = CST MWS port 33 ("")
! Touchstone port 34 = CST MWS port 34 ("")
! Touchstone port 35 = CST MWS port 35 ("")
! Touchstone port 36 = CST MWS port 36 ("")
! Touchstone port 37 = CST MWS port 37 ("")
! Touchstone port 38 = CST MWS port 38 ("")
! Touchstone port 39 = CST MWS port 39 ("")
! Touchstone port 40 = CST MWS port 40 ("")
! Touchstone port 41 = CST MWS port 41 ("")
! Touchstone port 42 = CST MWS port 42 ("")
! Touchstone port 43 = CST MWS port 43 ("")
! Touchstone port 44 = CST MWS port 44 ("")
! Touchstone port 45 = CST MWS port 45 ("")
! Touchstone port 46 = CST MWS port 46 ("")
! Touchstone port 47 = CST MWS port 47 ("")
! Touchstone port 48 = CST MWS port 48 ("")
! Touchstone port 49 = CST MWS port 49 ("")
! Touchstone port 50 = CST MWS port 50 ("")
! Touchstone port 51 = CST MWS port 51 ("")
! Touchstone port 52 = CST MWS port 52 ("")
! Touchstone port 53 = CST MWS port 53 ("")
! Touchstone port 54 = CST MWS port 54 ("")
! Touchstone port 55 = CST MWS port 55 ("")
! Touchstone port 56 = CST MWS port 56 ("")
! Touchstone port 57 = CST MWS port 57 ("")
! Touchstone port 58 = CST MWS port 58 ("")
! Touchstone port 59 = CST MWS port 59 ("")
! Touchstone port 60 = CST MWS port 60 ("")
! Touchstone port 61 = CST MWS port 61 ("")
! Touchstone port 62 = CST MWS port 62 ("")
! Touchstone port 63 = CST MWS port 63 ("")
! Touchstone port 64 = CST MWS port 64 ("")
! Touchstone port 65 = CST MWS port 65 ("")
# MHz S RI R 50
123.5                0.997529251     0.041432789   0.000461915813 -0.000423817425   0.000487402018   -0.0005334693   0.000507527819 -0.000602145775
                  0.000522550464 -0.000638701966   0.000536078518 -0.000643944639   0.000509955122 -0.000608055708    0.00049539262 -0.000516173242
                  0.000516659799 -0.000384602256    0.00053717295 -0.000551937271   0.000429457262 -0.000850033191   0.000349414892 -0.000959461328
                  0.000290295368 -0.000970251277   0.000313327445  -0.00101316194   0.000355469307 -0.000968063557   0.000440537048 -0.000837905177
                   0.00053311156 -0.000614877368   0.000619123779 -0.000689862799   0.000369582487 -0.000983644614   0.000212312946  -0.00118183439
                   0.00014450287  -0.00122936009    0.00014306922  -0.00123338293   0.000221872689  -0.00117195537   0.000398791046  -0.00100179236
                  0.000597844223 -0.000695782201   0.000652676581 -0.000765493352   0.000381840131  -0.00111580613   0.000183721975  -0.00129090645
                  6.42715825e-05  -0.00135687077   8.05831626e-05  -0.00137692292   0.000183228457  -0.00127002153   0.000396047373  -0.00110016739
                  0.000649965326 -0.000755771193   0.000644020495 -0.000752879878   0.000431184402  -0.00111656923   0.000210872649  -0.00132967217
                  7.69636832e-05  -0.00139596091   8.55693383e-05   -0.0014037962   0.000187295482  -0.00132142902   0.000391129961  -0.00112036936
                  0.000643716427 -0.000742515234   0.000632844662 -0.000718035772     0.0004399894  -0.00111972015   0.000290277525   -0.0012935225
                  0.000183849366  -0.00137411415   0.000206703587  -0.00137479474   0.000290463741  -0.00127825744   0.000447051733  -0.00107551739
                  0.000665965868 -0.000740207778   0.000653199026 -0.000630050574   0.000525671777 -0.000918428485   0.000478299569  -0.00111944634
                  0.000438118623  -0.00120200721   0.000444144955  -0.00120179768   0.000477937459  -0.00112738496   0.000527255458 -0.000957011337
                  0.000586191971 -0.000614590965   0.000519046404 -0.000441755035   0.000630075072 -0.000660493509   0.000714067176 -0.000796174624
                  0.000695031819 -0.000846991164   0.000728982698 -0.000855721056   0.000713043079 -0.000811246164    0.00063590419 -0.000654203122
                  0.000539493981 -0.000455280464
                  0.000452374236 -0.000418219353     0.0401377919     0.988931878    -0.0391520152  0.000460089503   -0.00357407138  -0.00077840923
                  -0.00089719952 -0.000105632486  -0.000356494091   -1.136578e-05  -0.000175350075 -1.36938951e-06  -0.000101347608 -5.76073233e-06
                 -6.73961049e-05 -1.29195063e-05    -0.0389484138  0.000301196702    -0.0101742723  -0.00156264265   -0.00238031991 -0.000413774861
                 -0.000800962388 -7.33000659e-06  -0.000345241306  6.40752854e-05  -0.000174354189  5.83670967e-05  -0.000105796841  3.14525413e-05
                 -7.64363461e-05 -2.06242805e-06   -0.00358050578 -0.000778341007   -0.00236891079 -0.000418146441   -0.00113169162 -6.36029021e-05
                 -0.000528200223  8.46991928e-05  -0.000259698359  0.000111253256  -0.000141147619  8.99624953e-05  -9.30074002e-05  5.09342191e-05
                 -7.46457885e-05  3.27000304e-06  -0.000916356785 -0.000104921477  -0.000805339836 -8.86958869e-06  -0.000530103271  8.45274302e-05
                 -0.000306746951  0.000126549786  -0.000170390939  0.000125032723   -0.00010221948  9.70936756e-05  -7.58069705e-05  5.50237186e-05
                  -6.8308216e-05  3.80852759e-06   -0.00037219129 -1.13217775e-05  -0.000352328422  6.68806272e-05  -0.000264533472  0.000112096597
                 -0.000172481595  0.000126097757  -0.000107254504  0.000114894475  -7.26523565e-05  8.76743255e-05   -6.1504516e-05  4.92578331e-05
                 -6.06100808e-05  2.20840788e-06  -0.000186917087  -6.4197432e-07  -0.000183053004  6.03234165e-05  -0.000146776985  9.27259306e-05
                  -0.00010542537  9.93852627e-05  -7.40278478e-05  8.89677942e-05  -5.76695062e-05  6.73205987e-05  -5.31925308e-05   3.7092263e-05
                 -5.33907177e-05 -8.75159945e-07  -0.000109454903  -5.3155768e-06  -0.000113290481  3.37038019e-05  -9.87096698e-05  5.41250983e-05
                 -7.98411714e-05  5.81602083e-05  -6.42002967e-05  5.16654826e-05  -5.47322618e-05  3.82601298e-05  -5.06154275e-05  1.91168178e-05
                 -4.72699529e-05 -5.58495659e-06  -7.30617759e-05 -1.33384288e-05  -8.26366953e-05  -2.5089433e-07  -8.05753467e-05  6.01484547e-06
                  -7.3462321e-05   7.2121675e-06  -6.50420316e-05  4.99215039e-06  -5.67960237e-05  1.17608193e-06  -4.92066726e-05 -4.37138481e-06
                 -4.06717773e-05 -1.13660647e-05
                   0.00048780911 -0.000542502234    -0.0391520287  0.000460083142     0.0410703069     0.986978305    -0.0391280748  8.08456344e-05
                  -0.00357368244 -0.000844848503  -0.000897556482 -0.000113265379   -0.00035654056  -8.1934427e-06  -0.000175755452  2.19650687e-06
                 -0.000101119207 -5.57085006e-06    -0.0101797578  -0.00162861817    -0.0387696279  -0.00100956294    -0.0101583553  -0.00198648586
                  -0.00241057314 -0.000563043991  -0.000831340009 -6.32238113e-05  -0.000366895303  4.61666285e-05  -0.000191656582  4.32936586e-05
                 -0.000115078985  8.49592698e-06   -0.00238963013 -0.000511384457   -0.00365750343  -0.00117658894   -0.00241262479 -0.000671935352
                  -0.00118343137 -0.000188255796  -0.000574654226  2.94523721e-05  -0.000297134809  8.40381014e-05  -0.000170348744  6.51425318e-05
                 -0.000109949994  1.49618573e-05  -0.000827655069 -9.16567002e-05   -0.00100734911 -0.000172062323  -0.000863687507  -9.8312635e-05
                 -0.000585386695  2.00301722e-05  -0.000354710207  9.25922137e-05  -0.000211759903  0.000102989987  -0.000135690325  7.12992835e-05
                 -9.62499879e-05  1.53768439e-05  -0.000373766366  5.34268294e-07  -0.000433921724  2.81984098e-05  -0.000398909867  6.20609519e-05
                 -0.000307529797  9.82366204e-05  -0.000212739252  0.000113981587  -0.000143183351  0.000102492829  -0.000103121093  6.64385662e-05
                 -8.05780291e-05  1.28533432e-05  -0.000197392297  1.36450782e-05  -0.000225417748  5.91984734e-05  -0.000212187617  8.85712825e-05
                 -0.000175069599  0.000102823585  -0.000133076144  0.000101958969  -0.000100361474  8.49894385e-05  -7.98943736e-05  5.30413753e-05
                 -6.67281368e-05  8.16756773e-06  -0.000117941397  7.20666599e-06  -0.000135335972  4.30609045e-05  -0.000131121508  6.34232455e-05
                 -0.000115274829   7.0270217e-05  -9.59076534e-05  6.66391898e-05  -7.91400056e-05  5.36729752e-05  -6.70024568e-05  3.17098353e-05
                 -5.60674922e-05   1.4175744e-06  -7.81714012e-05 -3.91789491e-06  -9.24362111e-05  9.53188776e-06  -9.45200942e-05  1.60598284e-05
                 -8.92402446e-05  1.77423246e-05  -8.03033994e-05  1.55223423e-05  -6.98092642e-05  1.08486952e-05  -5.90996109e-05   3.3404457e-06
                  -4.6701141e-05 -6.60609786e-06
                  0.000512195394 -0.000609783845   -0.00357404305 -0.000778376637    -0.0391281563  8.08450826e-05     0.0365154578      0.98652065
                   -0.0392254827 -5.54360645e-06    -0.0035630762 -0.000840072424  -0.000895390518 -0.000113247688  -0.000356909699 -9.24120791e-06
                 -0.000175110715 -1.37940084e-06   -0.00240087747 -0.000509541584    -0.0101770078  -0.00204636299     -0.038836685  -0.00122538967
                     -0.01019334   -0.0020615409   -0.00242826381 -0.000598433463  -0.000842793364 -7.09138123e-05  -0.000377941288  2.86163378e-05
                  -0.00019383832  1.43093909e-05    -0.0011707936 -0.000190399707   -0.00243383383 -0.000720748069   -0.00369803677  -0.00128798204
                  -0.00244603416 -0.000720781211   -0.00121070591  -0.00021081454  -0.000597861574  1.21625236e-05  -0.000315689152  5.70842902e-05
                 -0.000175808512  2.19835742e-05  -0.000575948412  -3.5880085e-05  -0.000888505163 -0.000144437251   -0.00104723658 -0.000209651883
                 -0.000898154382 -0.000122450324  -0.000614540648  8.60390957e-06  -0.000381441027  7.65512227e-05  -0.000233511502  7.33891944e-05
                 -0.000143515399  2.33442197e-05  -0.000306613257  1.32007177e-05  -0.000420579382  2.52985403e-05  -0.000466794863    3.448436e-05
                 -0.000426572961   6.4074174e-05  -0.000333031167  9.50770116e-05  -0.000236465127  0.000102425538  -0.000163477223  7.55823755e-05
                 -0.000111220887  2.08375652e-05  -0.000176780102  2.01917774e-05  -0.000228656742   6.0099704e-05  -0.000246191715  8.55759011e-05
                 -0.000230522313  0.000100986964  -0.000192802732  0.000106145088  -0.000150866135  9.48579345e-05     -0.000114925  6.41584173e-05
                 -8.52089356e-05  1.50729631e-05  -0.000110890303  1.24207969e-05  -0.000138970107  4.69619888e-05  -0.000147846067  6.76924605e-05
                 -0.000141615091  7.65439063e-05  -0.000125217982  7.55651413e-05  -0.000105284626  6.40674016e-05  -8.62637547e-05  4.09221423e-05
                 -6.67987255e-05  6.56649273e-06  -7.49016343e-05  9.11607704e-08  -9.29874434e-05  1.36095388e-05  -0.000100226795  2.07061438e-05
                 -9.91848281e-05  2.32870106e-05  -9.23447491e-05  2.17510916e-05  -8.15591796e-05  1.71418511e-05  -6.87238884e-05  8.65001316e-06
                 -5.27573023e-05 -3.36453633e-06
                   0.00052587538 -0.000639948002  -0.000897172713 -0.000105647265   -0.00357372143 -0.000844817778    -0.0392253751 -5.30920663e-06
                    0.0365864373     0.986541943    -0.0388555901  0.000108290171   -0.00355744438 -0.000834192951  -0.000897598956  -0.00011505808
                  -0.00035578232 -1.12522326e-05  -0.000827486037 -9.03932141e-05   -0.00242981229 -0.000604781893    -0.0101983731  -0.00207078964
                   -0.0388965758   -0.0012314984    -0.0101871292  -0.00210671117   -0.00242645672 -0.000588548463  -0.000847551839 -8.81910055e-05
                 -0.000370021725  1.70197673e-06  -0.000576609972 -3.46979721e-05    -0.0012150631 -0.000243285343   -0.00245776376 -0.000735820241
                  -0.00371017671  -0.00129036424   -0.00245453108 -0.000724055535   -0.00122079635 -0.000222420928  -0.000604747454 -1.55328549e-05
                 -0.000305877545  1.51532281e-05  -0.000363468771  6.94715238e-06  -0.000621812469 -3.46100479e-05  -0.000910593205 -0.000135577903
                  -0.00106174159 -0.000206644843  -0.000910290262 -0.000121067851  -0.000627358707 -5.78562331e-06  -0.000390124477  4.38508239e-05
                 -0.000225412599  2.35495299e-05  -0.000225726855  2.26358743e-05  -0.000340980155  4.96766779e-05  -0.000438593885  4.89589951e-05
                 -0.000478669759  4.85539145e-05  -0.000437833708  6.52567818e-05  -0.000344701625  8.19891546e-05  -0.000245550685  7.05181561e-05
                 -0.000158489162  2.50301714e-05  -0.000143733952   2.1838738e-05  -0.000200412755  6.53691428e-05  -0.000239695408  8.99030155e-05
                 -0.000253914203  0.000100684701  -0.000238412739  0.000103905247  -0.000202073771  9.53740845e-05  -0.000157307242  6.84969027e-05
                 -0.000111126754  1.99215966e-05  -9.64056513e-05  1.28341504e-05  -0.000127611037   4.8194524e-05  -0.000146228069  6.99053145e-05
                 -0.000152555733  7.94068952e-05  -0.000146061267  7.94055954e-05  -0.000129665166  6.92299342e-05  -0.000107655488  4.64934766e-05
                 -8.06789847e-05  1.03524508e-05  -6.79009521e-05  3.76665243e-07   -8.7448179e-05  1.40329466e-05  -9.88106417e-05  2.18825695e-05
                 -0.000102953264  2.53942392e-05  -0.000100491982  2.47312135e-05  -9.18635856e-05  2.07369747e-05  -7.86264989e-05  1.21526025e-05
                 -5.99383573e-05 -9.84795234e-07
                  0.000524151738 -0.000640945565  -0.000356456436 -1.13747886e-05  -0.000897606663 -0.000113226633   -0.00356302638 -0.000839826133
                   -0.0388556161  0.000108237737     0.0409911978     0.986961667    -0.0390699793  0.000184491641   -0.00357455601 -0.000834684703
                  -0.00089565485 -0.000102142775  -0.000369996681  2.54309545e-06  -0.000847426024 -8.69881194e-05   -0.00243006632 -0.000587015075
                   -0.0101803275  -0.00203788635    -0.0389086328  -0.00132095809     -0.010175693  -0.00203465537   -0.00242902976 -0.000596149502
                 -0.000826665123 -8.84007087e-05  -0.000305871761  1.56564236e-05  -0.000604155131 -1.37626441e-05   -0.00122107249 -0.000220407178
                  -0.00245542486 -0.000718680016   -0.00370745788   -0.0012823403   -0.00245638496 -0.000727718561   -0.00121567223 -0.000241154457
                 -0.000576113268 -3.28557748e-05  -0.000225480108  2.42259381e-05  -0.000389720841  4.54185963e-05   -0.00062652715 -4.25455093e-06
                 -0.000910208114 -0.000121688662   -0.00106157232 -0.000200950317  -0.000911128925 -0.000133817881  -0.000621508791 -3.43966812e-05
                 -0.000362882802  7.53756371e-06  -0.000158497476  2.51643217e-05  -0.000244728883  7.15502244e-05  -0.000344428294  8.21026343e-05
                 -0.000437438907  6.62082347e-05  -0.000478464421  4.94556612e-05  -0.000438368545  5.06782217e-05   -0.00034141788   4.9588404e-05
                 -0.000225420517  2.34762642e-05  -0.000111159941  2.00321825e-05  -0.000157473901  6.84819228e-05  -0.000201579376  9.61638732e-05
                 -0.000238238603  0.000104281161  -0.000253426523  0.000101246126  -0.000239567515  8.98846493e-05  -0.000199785095  6.62100286e-05
                  -0.00014347684  2.23381505e-05  -8.04337984e-05  1.07716528e-05  -0.000107767043  4.66207205e-05  -0.000129547654  6.95535561e-05
                 -0.000145848908  7.96802324e-05  -0.000152274248  7.97301506e-05  -0.000145902679  7.01331609e-05  -0.000127143452  4.85957176e-05
                 -9.65389581e-05   1.2787659e-05  -5.99922126e-05 -1.00361316e-06  -7.84934389e-05  1.23967841e-05  -9.17363699e-05  2.08192838e-05
                 -0.000100198148  2.51762886e-05  -0.000103043702  2.54062955e-05  -9.87478844e-05  2.22464663e-05  -8.74500653e-05  1.41742507e-05
                 -6.77735687e-05  7.33071901e-07
                  0.000509823228 -0.000610772688  -0.000175347898 -1.37352546e-06  -0.000356551985 -8.17785919e-06  -0.000895265416 -0.000113144037
                  -0.00355742267 -0.000834244169    -0.0390699394  0.000184521389     0.0423640647     0.986858652    -0.0391579314  0.000194180379
                  -0.00356773021 -0.000764177546  -0.000193564435  1.48725437e-05  -0.000377251081  2.96329137e-05  -0.000841804683 -6.97582416e-05
                  -0.00242307251  -0.00057814218     -0.010154325  -0.00206443884    -0.0387608261  -0.00109311685    -0.0101699494  -0.00201097586
                  -0.00239829249 -0.000503155783  -0.000175567406  2.24193233e-05  -0.000314780257  5.82504286e-05  -0.000596866301  1.39069334e-05
                  -0.00120922471  -0.00020650241   -0.00244408136 -0.000711600526    -0.0036916791  -0.00127143653   -0.00243275137 -0.000715075901
                  -0.00116873783 -0.000185855643  -0.000143343784  2.38950888e-05  -0.000232690749  7.43886827e-05    -0.0003801556  7.76306372e-05
                 -0.000613813766  8.84981653e-06   -0.00089688989 -0.000116781273   -0.00104712065 -0.000206580427  -0.000887184605 -0.000143342841
