! TOUCHSTONE file generated by CST MICROWAVE STUDIO
! Date and time: Thu Jun 27 11:23:28 2024
! Project name: Unit_Cell_Split_Ring_1x1.cst
! Parameters = {C_tune=14; Rs=1.26269; gap_width=2; pcb_edge=1; pcb_thickness=1.6; phantom_edge=10; split_ring_height=0.035; split_ring_inner_radius=30; split_ring_outer_radius=31; state=16.5; trace_width=1}
! Header version: 2024
! Port assignment regex: !\s*Touchstone port\s*([0-9]+)\s*=\s*(CST MWS port|CST DES external port|CST DES block port)\s*(.+)\s* \(\"(.*)\"\)(\s*mode\s*([0-9]+))?.*
! Touchstone port assignment:
! Touchstone port 1 = CST MWS port 1 ("")
! Touchstone port 2 = CST MWS port 2 ("")
# MHz S RI R 50
50                   0.108023366     0.961213362      0.187201399   -0.0562057337       0.18720144   -0.0562057307      0.418052285     0.884497059
50.15                 0.11095413     0.960891151      0.186904472   -0.0567112283      0.186904534   -0.0567112079      0.420453016     0.883386498
50.3                  0.11387512      0.96056128      0.186605817   -0.0572132797      0.186605899   -0.0572132432      0.422841026     0.882274312
50.45                 0.11678635     0.960223825      0.186305467   -0.0577118985      0.186305569   -0.0577118471      0.425216391     0.881160559
50.6                 0.119687833      0.95987886      0.186003458   -0.0582070953      0.186003577   -0.0582070302      0.427579183     0.880045295
50.75                0.122579586      0.95952646      0.185699822   -0.0586988812      0.185699959   -0.0586988035      0.429929476     0.878928577
50.9                 0.125461621       0.9591667      0.185394594   -0.0591872672      0.185394746    -0.059187178      0.432267343     0.877810459
51.05                0.128333954     0.958799652      0.185087805   -0.0596722644      0.185087973   -0.0596721648      0.434592858     0.876690996
51.2                 0.131196602     0.958425389       0.18477949   -0.0601538844      0.184779672   -0.0601537752      0.436906092     0.875570242
51.35                0.134049578     0.958043984      0.184469679   -0.0606321386      0.184469874   -0.0606320209      0.439207117     0.874448249
51.5                   0.1368929     0.957655509      0.184158405   -0.0611070387      0.184158613   -0.0611069133      0.441496007     0.873325068
51.65                0.139726583     0.957260034      0.183845699   -0.0615785965      0.183845919   -0.0615784643      0.443772831     0.872200752
51.8                 0.142550644     0.956857631      0.183531593    -0.062046824      0.183531823   -0.0620466858       0.44603766     0.871075351
51.95                  0.1453651      0.95644837      0.183216117   -0.0625117332      0.183216357   -0.0625115897      0.448290567     0.869948914
52.1                 0.148169968      0.95603232      0.182899302   -0.0629733364      0.182899551   -0.0629731884       0.45053162      0.86882149
52.25                0.150965265     0.955609551      0.182581177   -0.0634316459      0.182581435    -0.063431494      0.452760891     0.867693128
52.4                 0.153751009     0.955180132      0.182261773    -0.063886674      0.182262038   -0.0638865191      0.454978448     0.866563874
52.55                0.156527217      0.95474413      0.181941119   -0.0643384335       0.18194139    -0.064338276      0.457184361     0.865433777
52.7                 0.159293908     0.954301614      0.181619243   -0.0647869369      0.181619521   -0.0647867774      0.459378699      0.86430288
52.85                  0.1620511      0.95385265      0.181296175    -0.065232197      0.181296458   -0.0652320361       0.46156153     0.863171231
53                   0.164798811     0.953397306      0.180971942   -0.0656742267       0.18097223    -0.065674065      0.463732923     0.862038873
53.15                 0.16753706     0.952935648      0.180646573   -0.0661130389      0.180646865   -0.0661128768      0.465892946     0.860905851
53.3                 0.170265866      0.95246774      0.180320096   -0.0665486468      0.180320391   -0.0665484847      0.468041665     0.859772207
53.45                0.172985248      0.95199365      0.179992537   -0.0669810633      0.179992834   -0.0669809018       0.47017915     0.858637985
53.6                 0.175695226     0.951513441      0.179663924   -0.0674103019      0.179664223   -0.0674101413      0.472305465     0.857503226
53.75                 0.17839582     0.951027177      0.179334283   -0.0678363758      0.179334584   -0.0678362165      0.474420678     0.856367972
53.9                 0.181087048     0.950534922       0.17900364   -0.0682592983      0.179003943   -0.0682591407      0.476524855     0.855232263
54.05                0.183768932      0.95003674      0.178672023    -0.068679083      0.178672325   -0.0686789274      0.478618061     0.854096139
54.2                 0.186441491     0.949532694      0.178339456   -0.0690957434      0.178339758   -0.0690955901      0.480700363      0.85295964
54.35                0.189104746     0.949022845      0.178005964   -0.0695092931      0.178006266   -0.0695091425      0.482771824     0.851822805
54.5                 0.191758717     0.948507255      0.177671574   -0.0699197458      0.177671874    -0.069919598      0.484832511     0.850685671
54.65                0.194403426     0.947985986      0.177336309   -0.0703271151      0.177336607   -0.0703269705      0.486882486     0.849548277
54.8                 0.197038892     0.947459099      0.177000194    -0.070731415       0.17700049   -0.0707312737      0.488921815     0.848410659
54.95                0.199665138     0.946926655      0.176663253   -0.0711326592      0.176663547   -0.0711325215       0.49095056     0.847272854
55.1                 0.202282185     0.946388712       0.17632551   -0.0715308617      0.176325801   -0.0715307277      0.492968785     0.846134897
55.25                0.204890053     0.945845331      0.175986989   -0.0719260364      0.175987276   -0.0719259062      0.494976554     0.844996824
55.4                 0.207488765      0.94529657      0.175647712   -0.0723181972      0.175647995   -0.0723180711      0.496973927     0.843858669
55.55                0.210078343     0.944742488      0.175307703   -0.0727073583      0.175307982   -0.0727072364      0.498960969     0.842720467
55.7                 0.212658808     0.944183144      0.174966985   -0.0730935337      0.174967259   -0.0730934161       0.50093774     0.841582252
55.85                0.215230183     0.943618595       0.17462558   -0.0734767375      0.174625849   -0.0734766244      0.502904303     0.840444055
56                   0.217792489     0.943048897      0.174283509   -0.0738569839      0.174283773   -0.0738568753      0.504860718     0.839305911
56.15                 0.22034575     0.942474109      0.173940795    -0.074234287      0.173941053    -0.074234183      0.506807046      0.83816785
56.3                 0.222889987     0.941894285      0.173597459   -0.0746086612      0.173597711   -0.0746085619      0.508743348     0.837029905
56.45                0.225425223     0.941309483      0.173253523   -0.0749801206      0.173253768    -0.074980026      0.510669683     0.835892106
56.6                 0.227951482     0.940719757      0.172909007   -0.0753486795      0.172909246   -0.0753485896      0.512586112     0.834754484
56.75                0.230468786     0.940125162      0.172563932   -0.0757143522      0.172564164   -0.0757142671      0.514492694     0.833617069
56.9                 0.232977157     0.939525753      0.172218319    -0.076077153      0.172218544   -0.0760770728      0.516389488      0.83247989
57.05                 0.23547662     0.938921583      0.171872188   -0.0764370963      0.171872405   -0.0764370209      0.518276552     0.831342976
57.2                 0.237967198     0.938312708      0.171525558   -0.0767941964      0.171525768   -0.0767941258      0.520153946     0.830206356
57.35                0.240448913     0.937699179       0.17117845   -0.0771484677      0.171178652   -0.0771484019      0.522021727     0.829070058
57.5                  0.24292179     0.937081049      0.170830882   -0.0774999245      0.170831076   -0.0774998635      0.523879952     0.827934109
57.65                0.245385852     0.936458372      0.170482874   -0.0778485813      0.170483059    -0.077848525       0.52572868     0.826798537
57.8                 0.247841123     0.935831199      0.170134445   -0.0781944524      0.170134622   -0.0781944009      0.527567966     0.825663369
57.95                0.250287626     0.935199581      0.169785613   -0.0785375522      0.169785781   -0.0785375054      0.529397869     0.824528629
58.1                 0.252725386     0.934563569      0.169436396   -0.0788778953      0.169436556   -0.0788778531      0.531218443     0.823394345
58.25                0.255154426     0.933923215      0.169086814   -0.0792154958      0.169086964   -0.0792154583      0.533029745     0.822260542
58.4                 0.257574771     0.933278568      0.168736883   -0.0795503684      0.168737025   -0.0795503353      0.534831831     0.821127245
58.55                0.259986444     0.932629678      0.168386621   -0.0798825273      0.168386754   -0.0798824987      0.536624755     0.819994477
58.7                 0.262389471     0.931976596      0.168036046   -0.0802119871       0.16803617   -0.0802119629      0.538408573     0.818862264
58.85                0.264783875     0.931319369      0.167685175    -0.080538762      0.167685289   -0.0805387421       0.54018334     0.817730629
59                   0.267169681     0.930658046      0.167334025   -0.0808628665       0.16733413   -0.0808628509      0.541949109     0.816599595
59.15                0.269546913     0.929992677      0.166982613    -0.081184315      0.166982707   -0.0811843035      0.543705934     0.815469186
59.3                 0.271915596     0.929323308      0.166630954   -0.0815031219      0.166631039   -0.0815031144       0.54545387     0.814339423
59.45                0.274275755     0.928649987      0.166279065   -0.0818193014      0.166279141    -0.081819298      0.547192969     0.813210329
59.6                 0.276627414     0.927972761      0.165926963   -0.0821328681      0.165927029   -0.0821328685      0.548923283     0.812081925
59.75                0.278970598     0.927291678      0.165574663   -0.0824438362      0.165574719   -0.0824438404      0.550644867     0.810954234
59.9                 0.281305332     0.926606782      0.165222181     -0.08275222      0.165222227   -0.0827522279      0.552357772     0.809827276
60.05                0.283631641      0.92591812      0.164869531   -0.0830580338      0.164869568   -0.0830580453       0.55406205     0.808701071
60.2                 0.285949549     0.925225738       0.16451673   -0.0833612921      0.164516757    -0.083361307      0.555757752      0.80757564
60.35                0.288259083      0.92452968      0.164163792   -0.0836620089      0.164163809   -0.0836620272       0.55744493     0.806451004
60.5                 0.290560266     0.923829992      0.163810731   -0.0839601985      0.163810739   -0.0839602201      0.559123635      0.80532718
60.65                0.292853125     0.923126717      0.163457563   -0.0842558753      0.163457561      -0.0842559      0.560793917      0.80420419
60.8                 0.295137684     0.922419901      0.163104302   -0.0845490534      0.163104289   -0.0845490811      0.562455827     0.803082051
60.95                0.297413968     0.921709585      0.162750961   -0.0848397469      0.162750939   -0.0848397775      0.564109415     0.801960782
61.1                 0.299682003     0.920995815      0.162397555     -0.08512797      0.162397523   -0.0851280035       0.56575473     0.800840402
61.25                0.301941814     0.920278632      0.162044098   -0.0854137369      0.162044056    -0.085413773      0.567391822     0.799720929
61.4                 0.304193426     0.919558079      0.161690602   -0.0856970616      0.161690551   -0.0856971003       0.56902074      0.79860238
61.55                0.306436865     0.918834199      0.161337081   -0.0859779582       0.16133702   -0.0859779994      0.570641532     0.797484772
61.7                 0.308672156     0.918107032      0.160983549   -0.0862564408      0.160983479   -0.0862564843      0.572254247     0.796368122
61.85                0.310899325     0.917376622      0.160630018   -0.0865325233      0.160629938   -0.0865325691      0.573858933     0.795252448
62                   0.313118397     0.916643008      0.160276501   -0.0868062198      0.160276412   -0.0868062676      0.575455638     0.794137765
62.15                0.315329398     0.915906231      0.159923011   -0.0870775441      0.159922912   -0.0870775939      0.577044409     0.793024089
62.3                 0.317532352     0.915166332      0.159569559   -0.0873465102      0.159569451   -0.0873465619      0.578625293     0.791911437
62.45                0.319727286     0.914423352      0.159216159   -0.0876131319      0.159216042   -0.0876131853      0.580198338     0.790799824
62.6                 0.321914226     0.913677329      0.158862822   -0.0878774231      0.158862695   -0.0878774782       0.58176359     0.789689266
62.75                0.324093196     0.912928303      0.158509559   -0.0881393976      0.158509424   -0.0881394542      0.583321096     0.788579776
62.9                 0.326264222     0.912176313      0.158156384   -0.0883990691      0.158156239   -0.0883991271        0.5848709      0.78747137
63.05                0.328427331     0.911421398      0.157803306   -0.0886564513      0.157803153   -0.0886565107      0.586413049     0.786364063
63.2                 0.330582547     0.910663596      0.157450338    -0.088911558      0.157450176   -0.0889116186      0.587947589     0.785257868
63.35                0.332729897     0.909902945       0.15709749   -0.0891644028       0.15709732   -0.0891644645      0.589474564     0.784152799
63.5                 0.334869405     0.909139483      0.156744774   -0.0894149993      0.156744595   -0.0894150619       0.59099402     0.783048871
63.65                0.337001099     0.908373247        0.1563922    -0.089663361      0.156392013   -0.0896634245         0.592506     0.781946096
63.8                 0.339125002     0.907604275       0.15603978   -0.0899095014      0.156039584   -0.0899095657      0.594010549     0.780844487
63.95                0.341241142     0.906832603      0.155687522   -0.0901534341      0.155687319   -0.0901534991      0.595507712     0.779744057
64.1                 0.343349543     0.906058267      0.155335439   -0.0903951725      0.155335227    -0.090395238       0.59699753      0.77864482
64.25                0.345450231     0.905281303      0.154983539   -0.0906347299       0.15498332   -0.0906347959      0.598480049     0.777546787
64.4                 0.347543233     0.904501748      0.154631833   -0.0908721197      0.154631607   -0.0908721861      0.599955311     0.776449971
64.55                0.349628573     0.903719637      0.154280331   -0.0911073552      0.154280097   -0.0911074218      0.601423359     0.775354383
64.7                 0.351706278     0.902935005      0.153929043   -0.0913404496      0.153928801   -0.0913405164      0.602884236     0.774260036
64.85                0.353776373     0.902147886      0.153577977   -0.0915714162      0.153577728   -0.0915714831      0.604337983      0.77316694
65                   0.355838883     0.901358316      0.153227144    -0.091800268      0.153226888   -0.0918003349      0.605784643     0.772075108
65.15                0.357893835     0.900566328      0.152876552   -0.0920270183       0.15287629   -0.0920270851      0.607224258     0.770984549
65.3                 0.359941254     0.899771957      0.152526211     -0.09225168      0.152525942   -0.0922517467      0.608656869     0.769895275
65.45                0.361981166     0.898975236       0.15217613   -0.0924742662      0.152175854   -0.0924743326      0.610082517     0.768807297
65.6                 0.364013596     0.898176198      0.151826318   -0.0926947898      0.151826035   -0.0926948559      0.611501243     0.767720624
65.75                0.366038569     0.897374876      0.151476782   -0.0929132638      0.151476493   -0.0929133295      0.612913088     0.766635268
65.9                 0.368056113     0.896571304      0.151127532    -0.093129701      0.151127237   -0.0931297662      0.614318092     0.765551237
66.05                0.370066251     0.895765513      0.150778576   -0.0933441143      0.150778275   -0.0933441789      0.615716295     0.764468543
66.2                  0.37206901     0.894957536      0.150429923   -0.0935565163      0.150429616   -0.0935565803      0.617107738     0.763387193
66.35                0.374064415     0.894147405       0.15008158   -0.0937669198      0.150081267   -0.0937669831       0.61849246     0.762307199
66.5                 0.376052492      0.89333515      0.149733555   -0.0939753375      0.149733237      -0.0939754      0.619870499     0.761228568
66.65                0.378033266     0.892520804      0.149385857    -0.094181782      0.149385533   -0.0941818436      0.621241896     0.760151311
66.8                 0.380006763     0.891704398      0.149038492   -0.0943862658      0.149038164   -0.0943863265       0.62260669     0.759075435
66.95                0.381973008     0.890885962      0.148691469   -0.0945888014      0.148691136   -0.0945888612      0.623964918      0.75800095
67.1                 0.383932026     0.890065527      0.148344796   -0.0947894013      0.148344457     -0.09478946      0.625316619     0.756927863
67.25                0.385883844     0.889243122      0.147998478   -0.0949880779      0.147998135   -0.0949881355      0.626661831     0.755856184
67.4                 0.387828485     0.888418778      0.147652524   -0.0951848435      0.147652177      -0.0951849      0.628000593      0.75478592
67.55                0.389765977     0.887592525      0.147306941   -0.0953797104      0.147306589   -0.0953797657      0.629332941     0.753717079
67.7                 0.391696343     0.886764392      0.146961736   -0.0955726908       0.14696138   -0.0955727449      0.630658914     0.752649669
67.85                 0.39361961     0.885934407      0.146616915    -0.095763797      0.146616555   -0.0957638498      0.631978547     0.751583697
68                   0.395535802       0.8851026      0.146272485    -0.095953041      0.146272121   -0.0959530925      0.633291879     0.750519171
68.15                0.397444945     0.884268999      0.145928453    -0.096140435      0.145928086   -0.0961404851      0.634598945     0.749456099
68.3                 0.399347064     0.883433634      0.145584826   -0.0963259909      0.145584455   -0.0963260396      0.635899783     0.748394486
68.45                0.401242184      0.88259653      0.145241609   -0.0965097207      0.145241235   -0.0965097679      0.637194428     0.747334341
68.6                  0.40313033     0.881757718      0.144898809   -0.0966916363      0.144898432   -0.0966916821      0.638482917      0.74627567
68.75                0.405011527     0.880917223      0.144556433   -0.0968717496      0.144556052   -0.0968717939      0.639765284     0.745218479
68.9                 0.406885801     0.880075074      0.144214486   -0.0970500724      0.144214102   -0.0970501151      0.641041566     0.744162774
69.05                0.408753176     0.879231297      0.143872974   -0.0972266164      0.143872588   -0.0972266576      0.642311798     0.743108564
69.2                 0.410613677     0.878385919      0.143531903   -0.0974013933      0.143531514   -0.0974014329      0.643576015     0.742055852
69.35                0.412467329     0.877538967      0.143191279   -0.0975744148      0.143190888   -0.0975744527      0.644834251     0.741004646
